Title: * cs_amp
Date: Tue Jul  7 14:48:41  2026
Command: ngspice-46, Build Mar 29 2026   14:56:48
Plotname: AC Analysis
Flags: complex
No. Variables: 6
No. Points: 101
Variables:
	0	frequency	frequency grid=3
	1	v(in)	voltage
	2	v(n001)	voltage
	3	v(out)	voltage
	4	i(v2)	current
	5	i(v4)	current
Values:
 0	1.000000000000000e+00,0.000000000000000e+00
	1.000000000000000e+00,0.000000000000000e+00
	0.000000000000000e+00,0.000000000000000e+00
	-1.017479036045016e+02,2.729337457242574e-05
	-1.522825251259712e-17,-6.072712637515300e-11
	-2.034958072090033e-03,5.458674914485149e-10

 1	1.258925411794167e+00,0.000000000000000e+00
	1.000000000000000e+00,0.000000000000000e+00
	0.000000000000000e+00,0.000000000000000e+00
	-1.017479036044974e+02,3.436032282284210e-05
	-2.413515374029301e-17,-7.645092257891291e-11
	-2.034958072089947e-03,6.872064564568419e-10

 2	1.584893192461114e+00,0.000000000000000e+00
	1.000000000000000e+00,0.000000000000000e+00
	0.000000000000000e+00,0.000000000000000e+00
	-1.017479036044906e+02,4.325708355912413e-05
	-3.825164086199023e-17,-9.624600918969594e-11
	-2.034958072089812e-03,8.651416711824828e-10

 3	1.995262314968880e+00,0.000000000000000e+00
	1.000000000000000e+00,0.000000000000000e+00
	0.000000000000000e+00,0.000000000000000e+00
	-1.017479036044798e+02,5.445744173267929e-05
	-6.062476520262928e-17,-1.211665467526712e-10
	-2.034958072089596e-03,1.089148834653586e-09

 4	2.511886431509581e+00,0.000000000000000e+00
	1.000000000000000e+00,0.000000000000000e+00
	0.000000000000000e+00,0.000000000000000e+00
	-1.017479036044628e+02,6.855785725855870e-05
	-9.608377766418450e-17,-1.525396447662599e-10
	-2.034958072089256e-03,1.371157145171174e-09

 5	3.162277660168380e+00,0.000000000000000e+00
	1.000000000000000e+00,0.000000000000000e+00
	0.000000000000000e+00,0.000000000000000e+00
	-1.017479036044358e+02,8.630922868093388e-05
	-1.522825251258729e-16,-1.920360351022521e-10
	-2.034958072088716e-03,1.726184573618678e-09

 6	3.981071705534974e+00,0.000000000000000e+00
	1.000000000000000e+00,0.000000000000000e+00
	0.000000000000000e+00,0.000000000000000e+00
	-1.017479036043930e+02,1.086568812587359e-04
	-2.413515374026829e-16,-2.417590445703269e-10
	-2.034958072087860e-03,2.173137625174719e-09

 7	5.011872336272725e+00,0.000000000000000e+00
	1.000000000000000e+00,0.000000000000000e+00
	0.000000000000000e+00,0.000000000000000e+00
	-1.017479036043252e+02,1.367909089828330e-04
	-3.825164086192812e-16,-3.043566047404736e-10
	-2.034958072086504e-03,2.735818179656660e-09

 8	6.309573444801935e+00,0.000000000000000e+00
	1.000000000000000e+00,0.000000000000000e+00
	0.000000000000000e+00,0.000000000000000e+00
	-1.017479036042177e+02,1.722095514207297e-04
	-6.062476520247327e-16,-3.831622639547970e-10
	-2.034958072084355e-03,3.444191028414595e-09

 9	7.943282347242818e+00,0.000000000000000e+00
	1.000000000000000e+00,0.000000000000000e+00
	0.000000000000000e+00,0.000000000000000e+00
	-1.017479036040474e+02,2.167989804368683e-04
	-9.608377766379252e-16,-4.823727109325232e-10
	-2.034958072080948e-03,4.335979608737366e-09

 10	1.000000000000001e+01,0.000000000000000e+00
	1.000000000000000e+00,0.000000000000000e+00
	0.000000000000000e+00,0.000000000000000e+00
	-1.017479036037774e+02,2.729337457223164e-04
	-1.522825251248883e-15,-6.072712637474895e-10
	-2.034958072075549e-03,5.458674914446329e-09

 11	1.258925411794168e+01,0.000000000000000e+00
	1.000000000000000e+00,0.000000000000000e+00
	0.000000000000000e+00,0.000000000000000e+00
	-1.017479036033495e+02,3.436032282245480e-04
	-2.413515374002098e-15,-7.645092257810670e-10
	-2.034958072066991e-03,6.872064564490960e-09

 12	1.584893192461115e+01,0.000000000000000e+00
	1.000000000000000e+00,0.000000000000000e+00
	0.000000000000000e+00,0.000000000000000e+00
	-1.017479036026714e+02,4.325708355835136e-04
	-3.825164086130691e-15,-9.624600918808730e-10
	-2.034958072053428e-03,8.651416711670274e-09

 13	1.995262314968881e+01,0.000000000000000e+00
	1.000000000000000e+00,0.000000000000000e+00
	0.000000000000000e+00,0.000000000000000e+00
	-1.017479036015966e+02,5.445744173113742e-04
	-6.062476520091282e-15,-1.211665467494615e-09
	-2.034958072031933e-03,1.089148834622748e-08

 14	2.511886431509582e+01,0.000000000000000e+00
	1.000000000000000e+00,0.000000000000000e+00
	0.000000000000000e+00,0.000000000000000e+00
	-1.017479035998932e+02,6.855785725548223e-04
	-9.608377765987290e-15,-1.525396447598558e-09
	-2.034958071997865e-03,1.371157145109645e-08

 15	3.162277660168382e+01,0.000000000000000e+00
	1.000000000000000e+00,0.000000000000000e+00
	0.000000000000000e+00,0.000000000000000e+00
	-1.017479035971935e+02,8.630922867479544e-04
	-1.522825251150424e-14,-1.920360350894741e-09
	-2.034958071943870e-03,1.726184573495909e-08

 16	3.981071705534977e+01,0.000000000000000e+00
	1.000000000000000e+00,0.000000000000000e+00
	0.000000000000000e+00,0.000000000000000e+00
	-1.017479035929147e+02,1.086568812464882e-03
	-2.413515373754780e-14,-2.417590445448312e-09
	-2.034958071858295e-03,2.173137624929764e-08

 17	5.011872336272729e+01,0.000000000000000e+00
	1.000000000000000e+00,0.000000000000000e+00
	0.000000000000000e+00,0.000000000000000e+00
	-1.017479035861334e+02,1.367909089583954e-03
	-3.825164085509453e-14,-3.043566046896030e-09
	-2.034958071722668e-03,2.735818179167908e-08

 18	6.309573444801940e+01,0.000000000000000e+00
	1.000000000000000e+00,0.000000000000000e+00
	0.000000000000000e+00,0.000000000000000e+00
	-1.017479035753856e+02,1.722095513719702e-03
	-6.062476518530799e-14,-3.831622638532966e-09
	-2.034958071507712e-03,3.444191027439405e-08

 19	7.943282347242825e+01,0.000000000000000e+00
	1.000000000000000e+00,0.000000000000000e+00
	0.000000000000000e+00,0.000000000000000e+00
	-1.017479035583516e+02,2.167989803395803e-03
	-9.608377762067528e-14,-4.823727107300032e-09
	-2.034958071167032e-03,4.335979606791607e-08

 20	1.000000000000001e+02,0.000000000000000e+00
	1.000000000000000e+00,0.000000000000000e+00
	0.000000000000000e+00,0.000000000000000e+00
	-1.017479035313545e+02,2.729337455282013e-03
	-1.522825250165825e-13,-6.072712633434084e-09
	-2.034958070627090e-03,5.458674910564027e-08

 21	1.258925411794169e+02,0.000000000000000e+00
	1.000000000000000e+00,0.000000000000000e+00
	0.000000000000000e+00,0.000000000000000e+00
	-1.017479034885669e+02,3.436032278372372e-03
	-2.413515371281577e-13,-7.645092249748188e-09
	-2.034958069771338e-03,6.872064556744744e-08

 22	1.584893192461116e+02,0.000000000000000e+00
	1.000000000000000e+00,0.000000000000000e+00
	0.000000000000000e+00,0.000000000000000e+00
	-1.017479034207532e+02,4.325708348107267e-03
	-3.825164079297046e-13,-9.624600902721962e-09
	-2.034958068415064e-03,8.651416696214534e-08

 23	1.995262314968883e+02,0.000000000000000e+00
	1.000000000000000e+00,0.000000000000000e+00
	0.000000000000000e+00,0.000000000000000e+00
	-1.017479033132756e+02,5.445744157694611e-03
	-6.062476502925934e-13,-1.211665464284882e-08
	-2.034958066265513e-03,1.089148831538922e-07

 24	2.511886431509584e+02,0.000000000000000e+00
	1.000000000000000e+00,0.000000000000000e+00
	0.000000000000000e+00,0.000000000000000e+00
	-1.017479031429353e+02,6.855785694783009e-03
	-9.608377722869874e-13,-1.525396441194298e-08
	-2.034958062858706e-03,1.371157138956602e-07

 25	3.162277660168385e+02,0.000000000000000e+00
	1.000000000000000e+00,0.000000000000000e+00
	0.000000000000000e+00,0.000000000000000e+00
	-1.017479028729640e+02,8.630922806094871e-03
	-1.522825240319819e-12,-1.920360338116561e-08
	-2.034958057459280e-03,1.726184561218974e-07

 26	3.981071705534980e+02,0.000000000000000e+00
	1.000000000000000e+00,0.000000000000000e+00
	0.000000000000000e+00,0.000000000000000e+00
	-1.017479024450883e+02,1.086568800217028e-02
	-2.413515346549526e-12,-2.417590419952490e-08
	-2.034958048901767e-03,2.173137600434057e-07

 27	5.011872336272732e+02,0.000000000000000e+00
	1.000000000000000e+00,0.000000000000000e+00
	0.000000000000000e+00,0.000000000000000e+00
	-1.017479017669511e+02,1.367909065146273e-02
	-3.825164017172941e-12,-3.043565996025175e-08
	-2.034958035339022e-03,2.735818130292547e-07

 28	6.309573444801945e+02,0.000000000000000e+00
	1.000000000000000e+00,0.000000000000000e+00
	0.000000000000000e+00,0.000000000000000e+00
	-1.017479006921761e+02,1.722095464960120e-02
	-6.062476346877243e-12,-3.831622537032268e-08
	-2.034958013843522e-03,3.444190929920240e-07

 29	7.943282347242831e+02,0.000000000000000e+00
	1.000000000000000e+00,0.000000000000000e+00
	0.000000000000000e+00,0.000000000000000e+00
	-1.017478989887725e+02,2.167989706107645e-02
	-9.608377330893285e-12,-4.823726904779515e-08
	-2.034957979775450e-03,4.335979412215290e-07

 30	1.000000000000002e+03,0.000000000000000e+00
	1.000000000000000e+00,0.000000000000000e+00
	0.000000000000000e+00,0.000000000000000e+00
	-1.017478962890598e+02,2.729337261166622e-02
	-1.522825141859754e-11,-6.072712229352538e-08
	-2.034957925781197e-03,5.458674522333244e-07

 31	1.258925411794170e+03,0.000000000000000e+00
	1.000000000000000e+00,0.000000000000000e+00
	0.000000000000000e+00,0.000000000000000e+00
	-1.017478920103039e+02,3.436031891061260e-02
	-2.413515099229035e-11,-7.645091443499538e-08
	-2.034957840206079e-03,6.872063782122521e-07

 32	1.584893192461117e+03,0.000000000000000e+00
	1.000000000000000e+00,0.000000000000000e+00
	0.000000000000000e+00,0.000000000000000e+00
	-1.017478852289336e+02,4.325707575320052e-02
	-3.825163395931999e-11,-9.624599294044515e-08
	-2.034957704578672e-03,8.651415150640105e-07

 33	1.995262314968884e+03,0.000000000000000e+00
	1.000000000000000e+00,0.000000000000000e+00
	0.000000000000000e+00,0.000000000000000e+00
	-1.017478744811877e+02,5.445742615781568e-02
	-6.062474786390728e-11,-1.211665143311568e-07
	-2.034957489623755e-03,1.089148523156314e-06

 34	2.511886431509586e+03,0.000000000000000e+00
	1.000000000000000e+00,0.000000000000000e+00
	0.000000000000000e+00,0.000000000000000e+00
	-1.017478574471631e+02,6.855782618262536e-02
	-9.608373411129099e-11,-1.525395800768447e-07
	-2.034957148943262e-03,1.371156523652507e-06

 35	3.162277660168386e+03,0.000000000000000e+00
	1.000000000000000e+00,0.000000000000000e+00
	0.000000000000000e+00,0.000000000000000e+00
	-1.017478304500651e+02,8.630916667631154e-02
	-1.522824157259793e-10,-1.920359060299336e-07
	-2.034956609001303e-03,1.726183333526231e-06

 36	3.981071705534981e+03,0.000000000000000e+00
	1.000000000000000e+00,0.000000000000000e+00
	0.000000000000000e+00,0.000000000000000e+00
	-1.017477876625777e+02,1.086567575433015e-01
	-2.413512626026895e-10,-2.417587870373018e-07
	-2.034955753251554e-03,2.173135150866030e-06

 37	5.011872336272734e+03,0.000000000000000e+00
	1.000000000000000e+00,0.000000000000000e+00
	0.000000000000000e+00,0.000000000000000e+00
	-1.017477198490537e+02,1.367906621382531e-01
	-3.825157183533653e-10,-3.043560908948756e-07
	-2.034954396981074e-03,2.735813242765062e-06

 38	6.309573444801948e+03,0.000000000000000e+00
	1.000000000000000e+00,0.000000000000000e+00
	0.000000000000000e+00,0.000000000000000e+00
	-1.017476123720462e+02,1.722090589015615e-01
	-6.062459181569728e-10,-3.831612386991212e-07
	-2.034952247440925e-03,3.444181178031229e-06

 39	7.943282347242834e+03,0.000000000000000e+00
	1.000000000000000e+00,0.000000000000000e+00
	0.000000000000000e+00,0.000000000000000e+00
	-1.017474420329335e+02,2.167979977335762e-01
	-9.608334213663094e-10,-4.823706652819318e-07
	-2.034948840658671e-03,4.335959954671524e-06

 40	1.000000000000003e+04,0.000000000000000e+00
	1.000000000000000e+00,0.000000000000000e+00
	0.000000000000000e+00,0.000000000000000e+00
	-1.017471720648007e+02,2.729317849766689e-01
	-1.522814311330205e-09,-6.072671821487748e-07
	-2.034943441296014e-03,5.458635699533378e-06

 41	1.258925411794171e+04,0.000000000000000e+00
	1.000000000000000e+00,0.000000000000000e+00
	0.000000000000000e+00,0.000000000000000e+00
	-1.017467441970769e+02,3.435993160390862e-01
	-2.413487894284270e-09,-7.645010819551852e-07
	-2.034934883941539e-03,6.871986320781724e-06

 42	1.584893192461118e+04,0.000000000000000e+00
	1.000000000000000e+00,0.000000000000000e+00
	0.000000000000000e+00,0.000000000000000e+00
	-1.017460660797996e+02,4.325630297992744e-01
	-3.825095060660001e-09,-9.624438429201998e-07
	-2.034921321595992e-03,8.651260595985487e-06

 43	1.995262314968885e+04,0.000000000000000e+00
	1.000000000000000e+00,0.000000000000000e+00
	0.000000000000000e+00,0.000000000000000e+00
	-1.017449913548434e+02,5.445588428886219e-01
	-6.062303137777971e-09,-1.211633046897908e-06
	-2.034899827096868e-03,1.089117685777244e-05

 44	2.511886431509587e+04,0.000000000000000e+00
	1.000000000000000e+00,0.000000000000000e+00
	0.000000000000000e+00,0.000000000000000e+00
	-1.017432880770456e+02,6.855474980158269e-01
	-9.607942256591997e-09,-1.525331761085763e-06
	-2.034865761540912e-03,1.371094996031654e-05

 45	3.162277660168388e+04,0.000000000000000e+00
	1.000000000000000e+00,0.000000000000000e+00
	0.000000000000000e+00,0.000000000000000e+00
	-1.017405886803779e+02,8.630302865350243e-01
	-1.522715859036424e-08,-1.920231287755056e-06
	-2.034811773607557e-03,1.726060573070049e-05

 46	3.981071705534984e+04,0.000000000000000e+00
	1.000000000000000e+00,0.000000000000000e+00
	0.000000000000000e+00,0.000000000000000e+00
	-1.017363107181350e+02,1.086445110973927e+00
	-2.413240604732566e-08,-2.417332941448699e-06
	-2.034726214362700e-03,2.172890221947855e-05

 47	5.011872336272738e+04,0.000000000000000e+00
	1.000000000000000e+00,0.000000000000000e+00
	0.000000000000000e+00,0.000000000000000e+00
	-1.017295313411825e+02,1.367662289094665e+00
	-3.824473942885873e-08,-3.043052293079417e-06
	-2.034590626823651e-03,2.735324578189331e-05

 48	6.309573444801952e+04,0.000000000000000e+00
	1.000000000000000e+00,0.000000000000000e+00
	0.000000000000000e+00,0.000000000000000e+00
	-1.017187886018672e+02,1.721603133963780e+00
	-6.060743141557992e-08,-3.830597673065689e-06
	-2.034375772037344e-03,3.443206267927561e-05

 49	7.943282347242841e+04,0.000000000000000e+00
	1.000000000000000e+00,0.000000000000000e+00
	0.000000000000000e+00,0.000000000000000e+00
	-1.017017671505252e+02,2.167007540890258e+00
	-9.604024443984588e-08,-4.821682374274605e-06
	-2.034035343010504e-03,4.334015081780517e-05

 50	1.000000000000003e+05,0.000000000000000e+00
	1.000000000000000e+00,0.000000000000000e+00
	0.000000000000000e+00,0.000000000000000e+00
	-1.016748016247555e+02,2.727378103151866e+00
	-1.521732035806431e-07,-6.068633935543925e-06
	-2.033496032495110e-03,5.454756206303733e-05

 51	1.258925411794172e+05,0.000000000000000e+00
	1.000000000000000e+00,0.000000000000000e+00
	0.000000000000000e+00,0.000000000000000e+00
	-1.016320934016219e+02,3.432124497732623e+00
	-2.410770493504677e-07,-7.636957593192429e-06
	-2.032641868032438e-03,6.864248995465246e-05

 52	1.584893192461119e+05,0.000000000000000e+00
	1.000000000000000e+00,0.000000000000000e+00
	0.000000000000000e+00,0.000000000000000e+00
	-1.015644788158596e+02,4.317916483787522e+00
	-3.818273841419669e-07,-9.608380918538232e-06
	-2.031289576317192e-03,8.635832967575046e-05

 53	1.995262314968887e+05,0.000000000000000e+00
	1.000000000000000e+00,0.000000000000000e+00
	0.000000000000000e+00,0.000000000000000e+00
	-1.014575008636819e+02,5.430213706802930e+00
	-6.045187223282203e-07,-1.208432558044575e-05
	-2.029150017273639e-03,1.086042741360586e-04

 54	2.511886431509589e+05,0.000000000000000e+00
	1.000000000000000e+00,0.000000000000000e+00
	0.000000000000000e+00,0.000000000000000e+00
	-1.012884127220312e+02,6.824849973144881e+00
	-9.565021335744947e-07,-1.518956686918658e-05
	-2.025768254440624e-03,1.364969994628976e-04

 55	3.162277660168391e+05,0.000000000000000e+00
	1.000000000000000e+00,0.000000000000000e+00
	0.000000000000000e+00,0.000000000000000e+00
	-1.010215765891895e+02,8.569360405063140e+00
	-1.511963275701205e-06,-1.907545161541721e-05
	-2.020431531783789e-03,1.713872081012628e-04

 56	3.981071705534988e+05,0.000000000000000e+00
	1.000000000000000e+00,0.000000000000000e+00
	0.000000000000000e+00,0.000000000000000e+00
	-1.006015354116221e+02,1.074336518413179e+01
	-2.386344678800732e-06,-2.392127012320171e-05
	-2.012030708232442e-03,2.148673036826359e-04

 57	5.011872336272742e+05,0.000000000000000e+00
	1.000000000000000e+00,0.000000000000000e+00
	0.000000000000000e+00,0.000000000000000e+00
	-9.994291751214668e+01,1.343662110109422e+01
	-3.757360840561164e-06,-2.993092167033462e-05
	-1.998858350242934e-03,2.687324220218843e-04

 58	6.309573444801958e+05,0.000000000000000e+00
	1.000000000000000e+00,0.000000000000000e+00
	0.000000000000000e+00,0.000000000000000e+00
	-9.891654771489551e+01,1.674212856136430e+01
	-5.893910091796202e-06,-3.731947398204699e-05
	-1.978330954297911e-03,3.348425712272860e-04

 59	7.943282347242847e+05,0.000000000000000e+00
	1.000000000000000e+00,0.000000000000000e+00
	0.000000000000000e+00,0.000000000000000e+00
	-9.733231710365793e+01,2.073980208397045e+01
	-9.191733873525179e-06,-4.628031432757154e-05
	-1.946646342073159e-03,4.147960416794090e-04

 60	1.000000000000004e+06,0.000000000000000e+00
	1.000000000000000e+00,0.000000000000000e+00
	0.000000000000000e+00,0.000000000000000e+00
	-9.492277278278236e+01,2.546403314533262e+01
	-1.420757721612163e-05,-5.691906609631709e-05
	-1.898455455655647e-03,5.092806629066524e-04

 61	1.258925411794172e+06,0.000000000000000e+00
	1.000000000000000e+00,0.000000000000000e+00
	0.000000000000000e+00,0.000000000000000e+00
	-9.133886103562138e+01,3.084799880150190e+01
	-2.166805002075481e-05,-6.913947082147896e-05
	-1.826777220712428e-03,6.169599760300380e-04

 62	1.584893192461120e+06,0.000000000000000e+00
	1.000000000000000e+00,0.000000000000000e+00
	0.000000000000000e+00,0.000000000000000e+00
	-8.618137429278660e+01,3.664443285195077e+01
	-3.240416527684477e-05,-8.248074256266892e-05
	-1.723627485855732e-03,7.328886570390155e-04

 63	1.995262314968888e+06,0.000000000000000e+00
	1.000000000000000e+00,0.000000000000000e+00
	0.000000000000000e+00,0.000000000000000e+00
	-7.910147552200846e+01,4.234634419548242e+01
	-4.714208182314017e-05,-9.595540312389963e-05
	-1.582029510440169e-03,8.469268839096485e-04

 64	2.511886431509591e+06,0.000000000000000e+00
	1.000000000000000e+00,0.000000000000000e+00
	0.000000000000000e+00,0.000000000000000e+00
	-6.998710533683953e+01,4.717453413554050e+01
	-6.611506879796647e-05,-1.080269134585391e-04
	-1.399742106736791e-03,9.434906827108100e-04

 65	3.162277660168393e+06,0.000000000000000e+00
	1.000000000000000e+00,0.000000000000000e+00
	0.000000000000000e+00,0.000000000000000e+00
	-5.917666990089938e+01,5.022644577441825e+01
	-8.861868084699709e-05,-1.169240793453095e-04
	-1.183533398017988e-03,1.004528915488365e-03

 66	3.981071705534990e+06,0.000000000000000e+00
	1.000000000000000e+00,0.000000000000000e+00
	0.000000000000000e+00,0.000000000000000e+00
	-4.753366293173558e+01,5.080770640201192e+01
	-1.128554207517700e-04,-1.213369398321341e-04
	-9.506732586347118e-04,1.016154128040238e-03

 67	5.011872336272745e+06,0.000000000000000e+00
	1.000000000000000e+00,0.000000000000000e+00
	0.000000000000000e+00,0.000000000000000e+00
	-3.622717764225190e+01,4.877473420702565e+01
	-1.363916381502587e-04,-1.211371717276727e-04
	-7.245435528450380e-04,9.754946841405132e-04

 68	6.309573444801961e+06,0.000000000000000e+00
	1.000000000000000e+00,0.000000000000000e+00
	0.000000000000000e+00,0.000000000000000e+00
	-2.629906221773104e+01,4.461375579584512e+01
	-1.570585631058107e-04,-1.175516601225295e-04
	-5.259812443546208e-04,8.922751159169025e-04

